
**** 01/24/23 21:40:48 ********* PSpice 9.2 (Mar 2000) ******** ID# 1 ********

 ** Profile: "SCHEMATIC1-1"  [ D:\2\project_4-SCHEMATIC1-1.sim ] 


 ****     CIRCUIT DESCRIPTION


******************************************************************************




** Creating circuit file "project_4-SCHEMATIC1-1.sim.cir" 
** WARNING: THIS AUTOMATICALLY GENERATED FILE MAY BE OVERWRITTEN BY SUBSEQUENT SIMULATIONS

*Libraries: 
* Local Libraries :
* From [PSPICE NETLIST] section of C:\Program Files\Orcad\PSpice\PSpice.ini file:
.lib "nom.lib" 

*Analysis directives: 
.TRAN  0 2m 0 
.PROBE V(*) I(*) W(*) D(*) NOISE(*) 
.INC ".\project_4-SCHEMATIC1.net" 



**** INCLUDING project_4-SCHEMATIC1.net ****
* source PROJECT_4
V_V1         N00433 0  
+SIN 0 1m 1k 0 0 0
R_R1         N00433 N00375  1k  
R_R2         N00375 N00335  10k  
V_V2         N00635 0 5Vdc
X_U3         0 N00375 N00635 N00767 N00335 OPA134/BB
V_V3         0 N00767 5Vdc

**** RESUMING project_4-SCHEMATIC1-1.sim.cir ****
.END

**** 01/24/23 21:40:48 ********* PSpice 9.2 (Mar 2000) ******** ID# 1 ********

 ** Profile: "SCHEMATIC1-1"  [ D:\2\project_4-SCHEMATIC1-1.sim ] 


 ****     Diode MODEL PARAMETERS


******************************************************************************




               X_U3.DX         
          IS  800.000000E-18 


**** 01/24/23 21:40:48 ********* PSpice 9.2 (Mar 2000) ******** ID# 1 ********

 ** Profile: "SCHEMATIC1-1"  [ D:\2\project_4-SCHEMATIC1-1.sim ] 


 ****     Junction FET MODEL PARAMETERS


******************************************************************************




               X_U3.JX         
               PJF             
         VTO   -1            
        BETA    1.010000E-03 
          IS    2.500000E-15 


**** 01/24/23 21:40:48 ********* PSpice 9.2 (Mar 2000) ******** ID# 1 ********

 ** Profile: "SCHEMATIC1-1"  [ D:\2\project_4-SCHEMATIC1-1.sim ] 


 ****     INITIAL TRANSIENT SOLUTION       TEMPERATURE =   27.000 DEG C


******************************************************************************



 NODE   VOLTAGE     NODE   VOLTAGE     NODE   VOLTAGE     NODE   VOLTAGE


(N00335) 55.75E-06 (N00375) 5.063E-06 (N00433)    0.0000 (N00635)    5.0000     

(N00767)   -5.0000 (X_U3.6)-31.38E-09 (X_U3.7) 55.85E-06 (X_U3.8) 55.85E-06     

(X_U3.9)    0.0000 (X_U3.10)    -.7181                   (X_U3.11)   -4.8001    

(X_U3.12)   -4.8001                   (X_U3.53)    3.8000                       

(X_U3.54)   -4.1000                   (X_U3.90) 5.069E-06                       

(X_U3.91)   40.0000                   (X_U3.92)  -40.0000                       

(X_U3.99)    0.0000                   




    VOLTAGE SOURCE CURRENTS
    NAME         CURRENT

    V_V1         5.063E-09
    V_V2        -1.493E-03
    V_V3        -1.494E-03
    X_U3.VB     -3.138E-13
    X_U3.VC      3.801E-12
    X_U3.VE      4.101E-12
    X_U3.VLIM    5.069E-09
    X_U3.VLP    -4.000E-11
    X_U3.VLN    -4.000E-11

    TOTAL POWER DISSIPATION   1.49E-02  WATTS



          JOB CONCLUDED

          TOTAL JOB TIME             .03
